User : 7 23 options.c:53 configuration_output_handler(): set log_output to "STM32F303_PCB_KanbanDPE_20250918_Day1_1333_DEBUG.log"User : 8 23 options.c:53 configuration_output_handler(): 
Debug: 9 23 options.c:357 parse_cmdline_args(): ARGV[0] = "C:\Program Files (x86)\OpenOCD-20250710-0.12.0\bin\openocd.exe"
Debug: 10 23 options.c:357 parse_cmdline_args(): ARGV[1] = "-f"
Debug: 11 23 options.c:357 parse_cmdline_args(): ARGV[2] = ".\openocd\openocd.cfg"
Debug: 12 23 options.c:357 parse_cmdline_args(): ARGV[3] = "-d3"
Debug: 13 24 options.c:357 parse_cmdline_args(): ARGV[4] = "-l"
Debug: 14 24 options.c:357 parse_cmdline_args(): ARGV[5] = "STM32F303_PCB_KanbanDPE_20250918_Day1_1333_DEBUG.log"
Debug: 15 24 options.c:234 add_default_dirs(): bindir=../../bin
Debug: 16 24 options.c:235 add_default_dirs(): pkgdatadir=../../share/openocd
Debug: 17 24 options.c:236 add_default_dirs(): exepath=C:/Program Files (x86)/OpenOCD-20250710-0.12.0/bin
Debug: 18 24 options.c:237 add_default_dirs(): bin2data=../share/openocd
Debug: 19 24 configuration.c:33 add_script_search_dir(): adding C:/Users/Hp/AppData/Roaming/OpenOCD
Debug: 20 24 configuration.c:33 add_script_search_dir(): adding C:/Program Files (x86)/OpenOCD-20250710-0.12.0/bin/../share/openocd/site
Debug: 21 24 configuration.c:33 add_script_search_dir(): adding C:/Program Files (x86)/OpenOCD-20250710-0.12.0/bin/../share/openocd/scripts
Debug: 22 24 command.c:86 script_debug(): command - ocd_find .\openocd\openocd.cfg
Debug: 23 24 configuration.c:89 find_file(): found .\openocd\openocd.cfg
Debug: 24 27 command.c:86 script_debug(): command - ocd_find interface/stlink.cfg
Debug: 25 27 configuration.c:89 find_file(): found C:/Program Files (x86)/OpenOCD-20250710-0.12.0/bin/../share/openocd/scripts/interface/stlink.cfg
Debug: 26 27 command.c:86 script_debug(): command - adapter name
Debug: 27 27 command.c:86 script_debug(): command - adapter driver st-link
Debug: 28 27 command.c:86 script_debug(): command - st-link vid_pid 0x0483 0x3744 0x0483 0x3748 0x0483 0x374b 0x0483 0x374d 0x0483 0x374e 0x0483 0x374f 0x0483 0x3752 0x0483 0x3753 0x0483 0x3754 0x0483 0x3755 0x0483 0x3757
Debug: 29 27 command.c:86 script_debug(): command - transport select swd
Debug: 30 27 adi_v5_dapdirect.c:187 dapdirect_swd_select(): dapdirect_swd_select()
Debug: 31 27 command.c:86 script_debug(): command - ocd_find target/stm32f3x.cfg
Debug: 32 28 configuration.c:89 find_file(): found C:/Program Files (x86)/OpenOCD-20250710-0.12.0/bin/../share/openocd/scripts/target/stm32f3x.cfg
Debug: 33 28 command.c:86 script_debug(): command - ocd_find target/swj-dp.tcl
Debug: 34 28 configuration.c:89 find_file(): found C:/Program Files (x86)/OpenOCD-20250710-0.12.0/bin/../share/openocd/scripts/target/swj-dp.tcl
Debug: 35 29 command.c:86 script_debug(): command - transport select
Debug: 36 29 command.c:86 script_debug(): command - ocd_find mem_helper.tcl
Debug: 37 29 configuration.c:89 find_file(): found C:/Program Files (x86)/OpenOCD-20250710-0.12.0/bin/../share/openocd/scripts/mem_helper.tcl
Debug: 38 29 command.c:86 script_debug(): command - add_usage_text mrw address
Debug: 39 29 command.c:86 script_debug(): command - add_help_text mrw Returns value of word in memory.
Debug: 40 29 command.c:86 script_debug(): command - add_usage_text mrh address
Debug: 41 29 command.c:86 script_debug(): command - add_help_text mrh Returns value of halfword in memory.
Debug: 42 30 command.c:86 script_debug(): command - add_usage_text mrb address
Debug: 43 30 command.c:86 script_debug(): command - add_help_text mrb Returns value of byte in memory.
Debug: 44 30 command.c:86 script_debug(): command - add_usage_text mmw address setbits clearbits
Debug: 45 30 command.c:86 script_debug(): command - add_help_text mmw Modify word in memory. new_val = (old_val & ~clearbits) | setbits;
Debug: 46 30 command.c:86 script_debug(): command - adapter srst delay 100
Debug: 47 30 command.c:86 script_debug(): command - transport select
Debug: 48 30 command.c:86 script_debug(): command - transport select
Debug: 49 30 command.c:86 script_debug(): command - transport select
Debug: 50 30 command.c:86 script_debug(): command - transport select
Debug: 51 30 command.c:86 script_debug(): command - swd newdap stm32f3x cpu -irlen 4 -ircapture 0x1 -irmask 0xf -expected-id 0x2ba01477
Debug: 52 30 tcl.c:404 handle_jtag_newtap_args(): Creating New Tap, Chip: stm32f3x, Tap: cpu, Dotted: stm32f3x.cpu, 8 params
Debug: 53 30 core.c:1488 jtag_tap_init(): Created Tap: stm32f3x.cpu @ abs position 0, irlen 4, capture: 0x1 mask: 0xf
Debug: 54 30 command.c:86 script_debug(): command - dap create stm32f3x.dap -chain-position stm32f3x.cpu
Debug: 55 30 command.c:86 script_debug(): command - transport select
Debug: 56 30 command.c:86 script_debug(): command - target create stm32f3x.cpu cortex_m -endian little -dap stm32f3x.dap
Debug: 57 30 command.c:191 register_command(): command 'tpiu' is already registered
Debug: 58 30 command.c:191 register_command(): command 'rtt' is already registered
Debug: 59 31 command.c:86 script_debug(): command - stm32f3x.cpu configure -work-area-phys 0x20000000 -work-area-size 0x4000 -work-area-backup 0
Debug: 60 31 target.c:2150 target_free_all_working_areas_restore(): freeing all working areas
Debug: 61 31 target.c:2150 target_free_all_working_areas_restore(): freeing all working areas
Debug: 62 31 target.c:2150 target_free_all_working_areas_restore(): freeing all working areas
Debug: 63 31 command.c:86 script_debug(): command - flash bank stm32f3x.flash stm32f1x 0 0 0 0 stm32f3x.cpu
Debug: 64 31 tcl.c:1432 handle_flash_bank_command(): 'stm32f1x' driver usage field missing
Debug: 65 32 command.c:86 script_debug(): command - reset_config srst_nogate
Debug: 66 32 command.c:86 script_debug(): command - transport select
Debug: 67 32 command.c:86 script_debug(): command - cortex_m reset_config sysresetreq
Debug: 68 32 command.c:86 script_debug(): command - stm32f3x.cpu configure -event examine-end  stm32f3x_default_examine_end 
Debug: 69 32 command.c:86 script_debug(): command - stm32f3x.cpu configure -event reset-start  stm32f3x_default_reset_start 
Debug: 70 32 command.c:86 script_debug(): command - stm32f3x.cpu configure -event reset-init  stm32f3x_default_reset_init 
Debug: 71 32 command.c:86 script_debug(): command - tpiu create stm32f3x.tpiu -dap stm32f3x.dap -ap-num 0 -baseaddr 0xE0040000
Debug: 72 32 command.c:86 script_debug(): command - stm32f3x.tpiu configure -event pre-enable _proc_pre_enable_stm32f3x.tpiu stm32f3x.cpu
Debug: 73 32 command.c:86 script_debug(): command - adapter speed 950
Debug: 74 32 adapter.c:252 adapter_config_khz(): handle adapter khz
Debug: 75 32 adapter.c:215 adapter_khz_to_speed(): convert khz to adapter specific speed value
Debug: 76 32 adapter.c:215 adapter_khz_to_speed(): convert khz to adapter specific speed value
Debug: 77 32 command.c:86 script_debug(): command - stm32f3x.cpu configure -event examine-start  adapter speed 950 
Debug: 78 32 command.c:86 script_debug(): command - stm32f3x.cpu configure -event reset-start  adapter speed 950 
Debug: 79 32 command.c:86 script_debug(): command - stm32f3x.cpu configure -event reset-end  adapter speed 950 
Debug: 80 32 command.c:86 script_debug(): command - stm32f3x.cpu configure -event gdb-attach  adapter speed 4000 
Debug: 81 32 command.c:86 script_debug(): command - stm32f3x.cpu configure -event gdb-detach  adapter speed 950 
Info : 82 34 server.c:298 add_service(): Listening on port 6666 for tcl connections
Info : 83 34 server.c:298 add_service(): Listening on port 4444 for telnet connections
Debug: 84 34 command.c:86 script_debug(): command - init
Debug: 85 34 command.c:86 script_debug(): command - target init
Debug: 86 34 command.c:86 script_debug(): command - target names
Debug: 87 34 command.c:86 script_debug(): command - stm32f3x.cpu cget -event gdb-flash-erase-start
Debug: 88 34 command.c:86 script_debug(): command - stm32f3x.cpu configure -event gdb-flash-erase-start reset init
Debug: 89 34 command.c:86 script_debug(): command - stm32f3x.cpu cget -event gdb-flash-write-end
Debug: 90 34 command.c:86 script_debug(): command - stm32f3x.cpu configure -event gdb-flash-write-end reset halt
Debug: 91 34 command.c:86 script_debug(): command - stm32f3x.cpu cget -event gdb-attach
Debug: 92 34 target.c:1608 handle_target_init_command(): Initializing targets...
Debug: 93 34 semihosting_common.c:109 semihosting_common_init():  
Debug: 94 34 stlink_usb.c:5120 stlink_dap_init(): stlink_dap_init()
Debug: 95 34 stlink_usb.c:3732 stlink_open(): stlink_open
Debug: 96 35 stlink_usb.c:3744 stlink_open(): transport: 4 vid: 0x0483 pid: 0x3744 serial: 
Debug: 97 35 stlink_usb.c:3744 stlink_open(): transport: 4 vid: 0x0483 pid: 0x3748 serial: 
Debug: 98 35 stlink_usb.c:3744 stlink_open(): transport: 4 vid: 0x0483 pid: 0x374b serial: 
Debug: 99 35 stlink_usb.c:3744 stlink_open(): transport: 4 vid: 0x0483 pid: 0x374d serial: 
Debug: 100 35 stlink_usb.c:3744 stlink_open(): transport: 4 vid: 0x0483 pid: 0x374e serial: 
Debug: 101 35 stlink_usb.c:3744 stlink_open(): transport: 4 vid: 0x0483 pid: 0x374f serial: 
Debug: 102 35 stlink_usb.c:3744 stlink_open(): transport: 4 vid: 0x0483 pid: 0x3752 serial: 
Debug: 103 35 stlink_usb.c:3744 stlink_open(): transport: 4 vid: 0x0483 pid: 0x3753 serial: 
Debug: 104 35 stlink_usb.c:3744 stlink_open(): transport: 4 vid: 0x0483 pid: 0x3754 serial: 
Debug: 105 35 stlink_usb.c:3744 stlink_open(): transport: 4 vid: 0x0483 pid: 0x3755 serial: 
Debug: 106 35 stlink_usb.c:3744 stlink_open(): transport: 4 vid: 0x0483 pid: 0x3757 serial: 
Info : 107 77 stlink_usb.c:1471 stlink_usb_version(): STLINK V2J37M26 (API v2) VID:PID 0483:374B
Debug: 108 78 stlink_usb.c:1696 stlink_usb_exit_mode(): MODE: 0x01
Info : 109 78 stlink_usb.c:1507 stlink_usb_check_voltage(): Target voltage: 2.913779
Debug: 110 78 stlink_usb.c:1764 stlink_usb_init_mode(): MODE: 0x01
Debug: 111 78 stlink_usb.c:3130 stlink_dump_speed_map(): Supported clock speeds are:
Debug: 112 78 stlink_usb.c:3133 stlink_dump_speed_map(): 4000 kHz
Debug: 113 78 stlink_usb.c:3133 stlink_dump_speed_map(): 1800 kHz
Debug: 114 78 stlink_usb.c:3133 stlink_dump_speed_map(): 1200 kHz
Debug: 115 78 stlink_usb.c:3133 stlink_dump_speed_map(): 950 kHz
Debug: 116 78 stlink_usb.c:3133 stlink_dump_speed_map(): 480 kHz
Debug: 117 78 stlink_usb.c:3133 stlink_dump_speed_map(): 240 kHz
Debug: 118 78 stlink_usb.c:3133 stlink_dump_speed_map(): 125 kHz
Debug: 119 78 stlink_usb.c:3133 stlink_dump_speed_map(): 100 kHz
Debug: 120 78 stlink_usb.c:3133 stlink_dump_speed_map(): 50 kHz
Debug: 121 78 stlink_usb.c:3133 stlink_dump_speed_map(): 25 kHz
Debug: 122 78 stlink_usb.c:3133 stlink_dump_speed_map(): 15 kHz
Debug: 123 78 stlink_usb.c:3133 stlink_dump_speed_map(): 5 kHz
Debug: 124 81 stlink_usb.c:1824 stlink_usb_init_mode(): MODE: 0x02
Debug: 125 81 stlink_usb.c:4127 stlink_usb_open_ap(): AP 0 enabled
Debug: 126 82 stlink_usb.c:3820 stlink_open(): Using TAR autoincrement: 4096
Debug: 127 82 adapter.c:215 adapter_khz_to_speed(): convert khz to adapter specific speed value
Debug: 128 82 adapter.c:219 adapter_khz_to_speed(): have adapter set up
Debug: 129 82 adapter.c:215 adapter_khz_to_speed(): convert khz to adapter specific speed value
Debug: 130 82 adapter.c:219 adapter_khz_to_speed(): have adapter set up
Info : 131 82 adapter.c:180 adapter_init(): clock speed 950 kHz
Debug: 132 82 openocd.c:133 handle_init_command(): Debug Adapter init complete
Debug: 133 82 command.c:86 script_debug(): command - transport init
Debug: 134 82 transport.c:274 handle_transport_init(): handle_transport_init
Debug: 135 82 adi_v5_dapdirect.c:196 dapdirect_init(): dapdirect_init()
Debug: 136 82 stlink_usb.c:5168 stlink_dap_reset(): stlink_dap_reset(0)
Debug: 137 83 core.c:653 adapter_system_reset(): SRST line released
Debug: 138 244 command.c:86 script_debug(): command - dap init
Debug: 139 244 arm_dap.c:96 dap_init_all(): Initializing all DAPs ...
Debug: 140 244 arm_dap.c:120 dap_init_all(): DAP stm32f3x.cpu configured by default to use ADIv5 protocol
Info : 141 244 stlink_usb.c:4197 stlink_dap_op_connect(): stlink_dap_op_connect(connect)
Debug: 142 244 arm_adi_v5.c:791 dap_dp_init(): stm32f3x.dap
Debug: 143 244 arm_adi_v5.c:824 dap_dp_init(): DAP: wait CDBGPWRUPACK
Debug: 144 244 arm_adi_v5.h:682 dap_dp_poll_register(): DAP: poll 4, mask 0x20000000, value 0x20000000
Debug: 145 247 arm_adi_v5.c:832 dap_dp_init(): DAP: wait CSYSPWRUPACK
Debug: 146 247 arm_adi_v5.h:682 dap_dp_poll_register(): DAP: poll 4, mask 0x80000000, value 0x80000000
Debug: 147 251 stlink_usb.c:2057 stlink_usb_idcode(): IDCODE: 0x2BA01477
Info : 148 251 stlink_usb.c:4224 stlink_dap_op_connect(): SWD DPIDR 0x2ba01477
Debug: 149 251 openocd.c:150 handle_init_command(): Examining targets...
Debug: 150 251 target.c:684 target_examine_one(): [stm32f3x.cpu] Examination started
Debug: 151 251 target.c:1794 target_call_event_callbacks(): target event 19 (examine-start) for core stm32f3x.cpu
Debug: 152 251 target.c:4782 target_handle_event(): target: stm32f3x.cpu (cortex_m) event: 19 (examine-start) action:  adapter speed 950 
Debug: 153 251 command.c:86 script_debug(): command - adapter speed 950
Debug: 154 251 adapter.c:252 adapter_config_khz(): handle adapter khz
Debug: 155 251 adapter.c:215 adapter_khz_to_speed(): convert khz to adapter specific speed value
Debug: 156 251 adapter.c:219 adapter_khz_to_speed(): have adapter set up
Debug: 157 252 adapter.c:215 adapter_khz_to_speed(): convert khz to adapter specific speed value
Debug: 158 252 adapter.c:219 adapter_khz_to_speed(): have adapter set up
Debug: 159 252 arm_adi_v5.c:1201 dap_get_ap(): refcount AP#0x0 get 1
Debug: 160 253 arm_adi_v5.c:1144 dap_find_get_ap(): Found MEM-AP AHB3 at AP index: 0 (IDR=0x24770011)
Debug: 161 254 arm_adi_v5.c:942 mem_ap_init(): MEM_AP CFG: large data 0, long address 0, big-endian 0
Debug: 162 257 target.c:2581 target_read_u32(): address: 0xe000ed00, value: 0x410fc241
Info : 163 261 cortex_m.c:2917 cortex_m_examine(): [stm32f3x.cpu] Cortex-M4 r0p1 processor detected
Debug: 164 261 cortex_m.c:2940 cortex_m_examine(): [stm32f3x.cpu] cpuid: 0x410fc241
Debug: 165 263 target.c:2581 target_read_u32(): address: 0xe000ef40, value: 0x10110021
Debug: 166 263 cortex_m.c:2947 cortex_m_examine(): [stm32f3x.cpu] Cortex-M4 floating point feature FPv4_SP found
Debug: 167 265 target.c:2581 target_read_u32(): address: 0xe000edf0, value: 0x01090000
Debug: 168 265 target.c:2669 target_write_u32(): address: 0xe000edf0, value: 0xa05f0001
Debug: 169 267 target.c:2669 target_write_u32(): address: 0xe000edfc, value: 0x01000000
Debug: 170 270 target.c:2669 target_write_u32(): address: 0xe0000fb0, value: 0xc5acce55
Debug: 171 273 target.c:2581 target_read_u32(): address: 0xe0000e80, value: 0x00000000
Debug: 172 273 target.c:2669 target_write_u32(): address: 0xe0000e80, value: 0x00000000
Debug: 173 276 target.c:2581 target_read_u32(): address: 0xe0000e80, value: 0x00000000
Debug: 174 276 target.c:2669 target_write_u32(): address: 0xe0000e80, value: 0x00010009
Debug: 175 277 target.c:2669 target_write_u32(): address: 0xe0000e00, value: 0x00000001
Debug: 176 279 target.c:2669 target_write_u32(): address: 0xe0000e04, value: 0x00000000
Debug: 177 280 target.c:2669 target_write_u32(): address: 0xe0000e08, value: 0x00000000
Debug: 178 281 target.c:2669 target_write_u32(): address: 0xe0000e0c, value: 0x00000000
Debug: 179 283 target.c:2669 target_write_u32(): address: 0xe0000e10, value: 0x00000000
Debug: 180 284 target.c:2669 target_write_u32(): address: 0xe0000e14, value: 0x00000000
Debug: 181 285 target.c:2669 target_write_u32(): address: 0xe0000e18, value: 0x00000000
Debug: 182 287 target.c:2669 target_write_u32(): address: 0xe0000e1c, value: 0x00000000
Debug: 183 289 target.c:2581 target_read_u32(): address: 0xe0002000, value: 0x00000261
Debug: 184 289 target.c:2669 target_write_u32(): address: 0xe0002008, value: 0x00000000
Debug: 185 290 target.c:2669 target_write_u32(): address: 0xe000200c, value: 0x00000000
Debug: 186 291 target.c:2669 target_write_u32(): address: 0xe0002010, value: 0x00000000
Debug: 187 293 target.c:2669 target_write_u32(): address: 0xe0002014, value: 0x00000000
Debug: 188 294 target.c:2669 target_write_u32(): address: 0xe0002018, value: 0x00000000
Debug: 189 295 target.c:2669 target_write_u32(): address: 0xe000201c, value: 0x00000000
Debug: 190 296 target.c:2669 target_write_u32(): address: 0xe0002020, value: 0x00000000
Debug: 191 297 target.c:2669 target_write_u32(): address: 0xe0002024, value: 0x00000000
Debug: 192 297 cortex_m.c:3060 cortex_m_examine(): [stm32f3x.cpu] FPB fpcr 0x261, numcode 6, numlit 2
Debug: 193 298 target.c:2581 target_read_u32(): address: 0xe0001000, value: 0x40000000
Debug: 194 298 cortex_m.c:2628 cortex_m_dwt_setup(): [stm32f3x.cpu] DWT_CTRL: 0x40000000
Debug: 195 299 target.c:2581 target_read_u32(): address: 0xe0001fbc, value: 0x00000000
Debug: 196 299 cortex_m.c:2635 cortex_m_dwt_setup(): [stm32f3x.cpu] DWT_DEVARCH: 0x0
Debug: 197 299 target.c:2669 target_write_u32(): address: 0xe0001028, value: 0x00000000
Debug: 198 299 target.c:2669 target_write_u32(): address: 0xe0001038, value: 0x00000000
Debug: 199 300 target.c:2669 target_write_u32(): address: 0xe0001048, value: 0x00000000
Debug: 200 301 target.c:2669 target_write_u32(): address: 0xe0001058, value: 0x00000000
Debug: 201 301 cortex_m.c:2682 cortex_m_dwt_setup(): [stm32f3x.cpu] DWT dwtcr 0x40000000, comp 4, watch/trigger
Info : 202 301 cortex_m.c:3070 cortex_m_examine(): [stm32f3x.cpu] target has 6 breakpoints, 4 watchpoints
Debug: 203 301 target.c:1794 target_call_event_callbacks(): target event 21 (examine-end) for core stm32f3x.cpu
Debug: 204 301 target.c:4782 target_handle_event(): target: stm32f3x.cpu (cortex_m) event: 21 (examine-end) action:  stm32f3x_default_examine_end 
Debug: 205 301 command.c:86 script_debug(): command - read_memory 0xe0042004 32 1
Debug: 206 302 command.c:86 script_debug(): command - mww 0xe0042004 7
Debug: 207 303 command.c:86 script_debug(): command - read_memory 0xe0042008 32 1
Debug: 208 303 command.c:86 script_debug(): command - mww 0xe0042008 6144
Info : 209 304 target.c:700 target_examine_one(): [stm32f3x.cpu] Examination succeed
Debug: 210 304 command.c:86 script_debug(): command - flash init
Debug: 211 304 tcl.c:1489 handle_flash_init_command(): Initializing flash devices...
Debug: 212 304 command.c:86 script_debug(): command - nand init
Debug: 213 304 tcl.c:484 handle_nand_init_command(): Initializing NAND devices...
Debug: 214 304 command.c:86 script_debug(): command - pld init
Debug: 215 304 pld.c:337 handle_pld_init_command(): Initializing PLDs...
Debug: 216 304 command.c:86 script_debug(): command - tpiu init
Info : 217 304 gdb_server.c:3913 gdb_target_start(): [stm32f3x.cpu] starting gdb server on 3333
Info : 218 304 server.c:298 add_service(): Listening on port 3333 for gdb connections
Debug: 219 304 command.c:86 script_debug(): command - target names
Debug: 220 304 command.c:86 script_debug(): command - target names
Debug: 221 304 command.c:86 script_debug(): command - stm32f3x.cpu cget -type
Error: 222 358 cortex_m.c:968 cortex_m_poll_one(): [stm32f3x.cpu] clearing lockup after double fault
Debug: 223 360 target.c:1794 target_call_event_callbacks(): target event 0 (gdb-halt) for core stm32f3x.cpu
Error: 224 360 target.c:3018 handle_target(): [stm32f3x.cpu] Polling failed, trying to reexamine
Debug: 225 360 target.c:684 target_examine_one(): [stm32f3x.cpu] Examination started
Debug: 226 360 target.c:1794 target_call_event_callbacks(): target event 19 (examine-start) for core stm32f3x.cpu
Debug: 227 360 target.c:4782 target_handle_event(): target: stm32f3x.cpu (cortex_m) event: 19 (examine-start) action:  adapter speed 950 
Debug: 228 360 command.c:86 script_debug(): command - adapter speed 950
Debug: 229 360 adapter.c:252 adapter_config_khz(): handle adapter khz
Debug: 230 360 adapter.c:215 adapter_khz_to_speed(): convert khz to adapter specific speed value
Debug: 231 360 adapter.c:219 adapter_khz_to_speed(): have adapter set up
Debug: 232 360 adapter.c:215 adapter_khz_to_speed(): convert khz to adapter specific speed value
Debug: 233 361 adapter.c:219 adapter_khz_to_speed(): have adapter set up
Debug: 234 361 arm_adi_v5.c:942 mem_ap_init(): MEM_AP CFG: large data 0, long address 0, big-endian 0
Debug: 235 362 target.c:2581 target_read_u32(): address: 0xe000ed00, value: 0x410fc241
Info : 236 362 cortex_m.c:2917 cortex_m_examine(): [stm32f3x.cpu] Cortex-M4 r0p1 processor detected
Debug: 237 363 cortex_m.c:2940 cortex_m_examine(): [stm32f3x.cpu] cpuid: 0x410fc241
Debug: 238 364 target.c:2581 target_read_u32(): address: 0xe000ef40, value: 0x10110021
Debug: 239 364 cortex_m.c:2947 cortex_m_examine(): [stm32f3x.cpu] Cortex-M4 floating point feature FPv4_SP found
Debug: 240 365 target.c:2581 target_read_u32(): address: 0xe000edf0, value: 0x00030003
Debug: 241 365 target.c:2669 target_write_u32(): address: 0xe000edfc, value: 0x01000000
Debug: 242 366 target.c:2669 target_write_u32(): address: 0xe0000fb0, value: 0xc5acce55
Debug: 243 368 target.c:2581 target_read_u32(): address: 0xe0000e80, value: 0x00010009
Debug: 244 368 target.c:2669 target_write_u32(): address: 0xe0000e80, value: 0x00010008
Debug: 245 370 target.c:2581 target_read_u32(): address: 0xe0000e80, value: 0x00010008
Debug: 246 370 target.c:2669 target_write_u32(): address: 0xe0000e80, value: 0x00010009
Debug: 247 371 target.c:2669 target_write_u32(): address: 0xe0000e00, value: 0x00000001
Debug: 248 371 target.c:2669 target_write_u32(): address: 0xe0000e04, value: 0x00000000
Debug: 249 372 target.c:2669 target_write_u32(): address: 0xe0000e08, value: 0x00000000
Debug: 250 372 target.c:2669 target_write_u32(): address: 0xe0000e0c, value: 0x00000000
Debug: 251 373 target.c:2669 target_write_u32(): address: 0xe0000e10, value: 0x00000000
Debug: 252 374 target.c:2669 target_write_u32(): address: 0xe0000e14, value: 0x00000000
Debug: 253 374 target.c:2669 target_write_u32(): address: 0xe0000e18, value: 0x00000000
Debug: 254 375 target.c:2669 target_write_u32(): address: 0xe0000e1c, value: 0x00000000
Debug: 255 376 target.c:2581 target_read_u32(): address: 0xe0002000, value: 0x00000261
Debug: 256 376 target.c:2669 target_write_u32(): address: 0xe0002008, value: 0x00000000
Debug: 257 377 target.c:2669 target_write_u32(): address: 0xe000200c, value: 0x00000000
Debug: 258 377 target.c:2669 target_write_u32(): address: 0xe0002010, value: 0x00000000
Debug: 259 378 target.c:2669 target_write_u32(): address: 0xe0002014, value: 0x00000000
Debug: 260 379 target.c:2669 target_write_u32(): address: 0xe0002018, value: 0x00000000
Debug: 261 379 target.c:2669 target_write_u32(): address: 0xe000201c, value: 0x00000000
Debug: 262 380 target.c:2669 target_write_u32(): address: 0xe0002020, value: 0x00000000
Debug: 263 381 target.c:2669 target_write_u32(): address: 0xe0002024, value: 0x00000000
Debug: 264 381 cortex_m.c:3060 cortex_m_examine(): [stm32f3x.cpu] FPB fpcr 0x261, numcode 6, numlit 2
Debug: 265 382 target.c:2581 target_read_u32(): address: 0xe0001000, value: 0x40000000
Debug: 266 382 cortex_m.c:2628 cortex_m_dwt_setup(): [stm32f3x.cpu] DWT_CTRL: 0x40000000
Debug: 267 383 target.c:2581 target_read_u32(): address: 0xe0001fbc, value: 0x00000000
Debug: 268 383 cortex_m.c:2635 cortex_m_dwt_setup(): [stm32f3x.cpu] DWT_DEVARCH: 0x0
Debug: 269 383 target.c:2669 target_write_u32(): address: 0xe0001028, value: 0x00000000
Debug: 270 383 target.c:2669 target_write_u32(): address: 0xe0001038, value: 0x00000000
Debug: 271 384 target.c:2669 target_write_u32(): address: 0xe0001048, value: 0x00000000
Debug: 272 385 target.c:2669 target_write_u32(): address: 0xe0001058, value: 0x00000000
Debug: 273 385 cortex_m.c:2682 cortex_m_dwt_setup(): [stm32f3x.cpu] DWT dwtcr 0x40000000, comp 4, watch/trigger
Info : 274 385 cortex_m.c:3070 cortex_m_examine(): [stm32f3x.cpu] target has 6 breakpoints, 4 watchpoints
Debug: 275 385 target.c:1794 target_call_event_callbacks(): target event 21 (examine-end) for core stm32f3x.cpu
Debug: 276 385 target.c:4782 target_handle_event(): target: stm32f3x.cpu (cortex_m) event: 21 (examine-end) action:  stm32f3x_default_examine_end 
Debug: 277 385 command.c:86 script_debug(): command - read_memory 0xe0042004 32 1
Debug: 278 386 command.c:86 script_debug(): command - mww 0xe0042004 7
Debug: 279 387 command.c:86 script_debug(): command - read_memory 0xe0042008 32 1
Debug: 280 387 command.c:86 script_debug(): command - mww 0xe0042008 6144
Info : 281 388 target.c:700 target_examine_one(): [stm32f3x.cpu] Examination succeed
Info : 282 75436 cortex_m.c:987 cortex_m_poll_one(): [stm32f3x.cpu] external reset detected
Error: 283 75776 cortex_m.c:968 cortex_m_poll_one(): [stm32f3x.cpu] clearing lockup after double fault
Debug: 284 75781 cortex_m.c:1012 cortex_m_poll_one(): [stm32f3x.cpu] Exit from reset with dcb_dhcsr 0x30003
Debug: 285 75783 cortex_m.c:619 cortex_m_endreset_event(): [stm32f3x.cpu] DCB_DEMCR = 0x01000000
Debug: 286 75783 stlink_usb.c:4377 stlink_usb_misc_rw_segment(): Queue: 2 commands in 4 items
Debug: 287 75789 target.c:2669 target_write_u32(): address: 0xe0002000, value: 0x00000003
Debug: 288 75789 stlink_usb.c:4377 stlink_usb_misc_rw_segment(): Queue: 2 commands in 5 items
Debug: 289 75793 target.c:2581 target_read_u32(): address: 0xe0002000, value: 0x00000261
Debug: 290 75793 target.c:2669 target_write_u32(): address: 0xe0002008, value: 0x00000000
Debug: 291 75794 target.c:2669 target_write_u32(): address: 0xe000200c, value: 0x00000000
Debug: 292 75796 target.c:2669 target_write_u32(): address: 0xe0002010, value: 0x00000000
Debug: 293 75797 target.c:2669 target_write_u32(): address: 0xe0002014, value: 0x00000000
Debug: 294 75799 target.c:2669 target_write_u32(): address: 0xe0002018, value: 0x00000000
Debug: 295 75800 target.c:2669 target_write_u32(): address: 0xe000201c, value: 0x00000000
Debug: 296 75801 target.c:2669 target_write_u32(): address: 0xe0002020, value: 0x00000000
Debug: 297 75803 target.c:2669 target_write_u32(): address: 0xe0002024, value: 0x00000000
Debug: 298 75804 target.c:2669 target_write_u32(): address: 0xe0001020, value: 0x00000000
Debug: 299 75806 target.c:2669 target_write_u32(): address: 0xe0001024, value: 0x00000000
Debug: 300 75807 target.c:2669 target_write_u32(): address: 0xe0001028, value: 0x00000000
Debug: 301 75809 target.c:2669 target_write_u32(): address: 0xe0001030, value: 0x00000000
Debug: 302 75810 target.c:2669 target_write_u32(): address: 0xe0001034, value: 0x00000000
Debug: 303 75812 target.c:2669 target_write_u32(): address: 0xe0001038, value: 0x00000000
Debug: 304 75813 target.c:2669 target_write_u32(): address: 0xe0001040, value: 0x00000000
Debug: 305 75815 target.c:2669 target_write_u32(): address: 0xe0001044, value: 0x00000000
Debug: 306 75816 target.c:2669 target_write_u32(): address: 0xe0001048, value: 0x00000000
Debug: 307 75818 target.c:2669 target_write_u32(): address: 0xe0001050, value: 0x00000000
Debug: 308 75819 target.c:2669 target_write_u32(): address: 0xe0001054, value: 0x00000000
Debug: 309 75820 target.c:2669 target_write_u32(): address: 0xe0001058, value: 0x00000000
Debug: 310 75824 cortex_m.c:852 cortex_m_debug_entry(): [stm32f3x.cpu]  
Debug: 311 75827 cortex_m.c:557 cortex_m_clear_halt(): [stm32f3x.cpu] NVIC_DFSR 0x9
Debug: 312 75829 stlink_usb.c:4377 stlink_usb_misc_rw_segment(): Queue: 47 commands in 64 items
Debug: 313 75841 stlink_usb.c:4377 stlink_usb_misc_rw_segment(): Queue: 47 commands in 64 items
Debug: 314 75854 stlink_usb.c:4377 stlink_usb_misc_rw_segment(): Queue: 47 commands in 63 items
Debug: 315 75868 stlink_usb.c:4377 stlink_usb_misc_rw_segment(): Queue: 18 commands in 25 items
Debug: 316 75874 cortex_m.c:359 cortex_m_fast_read_all_regs(): [stm32f3x.cpu] read 53 32-bit registers
Debug: 317 75874 stlink_usb.c:4377 stlink_usb_misc_rw_segment(): Queue: 2 commands in 3 items
Debug: 318 75877 cortex_m.c:800 cortex_m_examine_exception_reason(): [stm32f3x.cpu] HardFault SHCSR 0x0, SR 0x40000000, CFSR 0x1001, AR 0xffffffff
Debug: 319 75877 cortex_m.c:922 cortex_m_debug_entry(): [stm32f3x.cpu] entered debug state in core mode: Handler at PC 0xfffffffe, cpu in Non-Secure state, target->state: halted
Debug: 320 75878 target.c:1794 target_call_event_callbacks(): target event 0 (gdb-halt) for core stm32f3x.cpu
Debug: 321 75878 target.c:1794 target_call_event_callbacks(): target event 1 (halted) for core stm32f3x.cpu
User : 322 75878 armv7m.c:771 armv7m_arch_state(): [stm32f3x.cpu] halted due to debug-request, current mode: Handler HardFault
xPSR: 0x01000003 pc: 0xfffffffe msp: 0xffffffd8
Debug: 323 75878 target.c:1794 target_call_event_callbacks(): target event 0 (gdb-halt) for core stm32f3x.cpu
Error: 324 75878 target.c:3018 handle_target(): [stm32f3x.cpu] Polling failed, trying to reexamine
Debug: 325 75878 target.c:684 target_examine_one(): [stm32f3x.cpu] Examination started
Debug: 326 75878 target.c:1794 target_call_event_callbacks(): target event 19 (examine-start) for core stm32f3x.cpu
Debug: 327 75878 target.c:4782 target_handle_event(): target: stm32f3x.cpu (cortex_m) event: 19 (examine-start) action:  adapter speed 950 
Debug: 328 75878 command.c:86 script_debug(): command - adapter speed 950
Debug: 329 75878 adapter.c:252 adapter_config_khz(): handle adapter khz
Debug: 330 75878 adapter.c:215 adapter_khz_to_speed(): convert khz to adapter specific speed value
Debug: 331 75878 adapter.c:219 adapter_khz_to_speed(): have adapter set up
Debug: 332 75878 adapter.c:215 adapter_khz_to_speed(): convert khz to adapter specific speed value
Debug: 333 75878 adapter.c:219 adapter_khz_to_speed(): have adapter set up
Debug: 334 75879 arm_adi_v5.c:942 mem_ap_init(): MEM_AP CFG: large data 0, long address 0, big-endian 0
Debug: 335 75880 target.c:2581 target_read_u32(): address: 0xe000ed00, value: 0x410fc241
Info : 336 75880 cortex_m.c:2917 cortex_m_examine(): [stm32f3x.cpu] Cortex-M4 r0p1 processor detected
Debug: 337 75880 cortex_m.c:2940 cortex_m_examine(): [stm32f3x.cpu] cpuid: 0x410fc241
Debug: 338 75881 target.c:2581 target_read_u32(): address: 0xe000ef40, value: 0x10110021
Debug: 339 75881 cortex_m.c:2947 cortex_m_examine(): [stm32f3x.cpu] Cortex-M4 floating point feature FPv4_SP found
Debug: 340 75882 target.c:2581 target_read_u32(): address: 0xe000edf0, value: 0x00030003
Debug: 341 75882 target.c:2669 target_write_u32(): address: 0xe000edfc, value: 0x01000000
Debug: 342 75882 target.c:2669 target_write_u32(): address: 0xe0000fb0, value: 0xc5acce55
Debug: 343 75884 target.c:2581 target_read_u32(): address: 0xe0000e80, value: 0x00010009
Debug: 344 75884 target.c:2669 target_write_u32(): address: 0xe0000e80, value: 0x00010008
Debug: 345 75885 target.c:2581 target_read_u32(): address: 0xe0000e80, value: 0x00010008
Debug: 346 75885 target.c:2669 target_write_u32(): address: 0xe0000e80, value: 0x00010009
Debug: 347 75886 target.c:2669 target_write_u32(): address: 0xe0000e00, value: 0x00000001
Debug: 348 75886 target.c:2669 target_write_u32(): address: 0xe0000e04, value: 0x00000000
Debug: 349 75887 target.c:2669 target_write_u32(): address: 0xe0000e08, value: 0x00000000
Debug: 350 75888 target.c:2669 target_write_u32(): address: 0xe0000e0c, value: 0x00000000
Debug: 351 75888 target.c:2669 target_write_u32(): address: 0xe0000e10, value: 0x00000000
Debug: 352 75889 target.c:2669 target_write_u32(): address: 0xe0000e14, value: 0x00000000
Debug: 353 75889 target.c:2669 target_write_u32(): address: 0xe0000e18, value: 0x00000000
Debug: 354 75890 target.c:2669 target_write_u32(): address: 0xe0000e1c, value: 0x00000000
Debug: 355 75891 target.c:2581 target_read_u32(): address: 0xe0002000, value: 0x00000261
Debug: 356 75891 target.c:2669 target_write_u32(): address: 0xe0002008, value: 0x00000000
Debug: 357 75892 target.c:2669 target_write_u32(): address: 0xe000200c, value: 0x00000000
Debug: 358 75892 target.c:2669 target_write_u32(): address: 0xe0002010, value: 0x00000000
Debug: 359 75893 target.c:2669 target_write_u32(): address: 0xe0002014, value: 0x00000000
Debug: 360 75894 target.c:2669 target_write_u32(): address: 0xe0002018, value: 0x00000000
Debug: 361 75894 target.c:2669 target_write_u32(): address: 0xe000201c, value: 0x00000000
Debug: 362 75895 target.c:2669 target_write_u32(): address: 0xe0002020, value: 0x00000000
Debug: 363 75895 target.c:2669 target_write_u32(): address: 0xe0002024, value: 0x00000000
Debug: 364 75896 cortex_m.c:3060 cortex_m_examine(): [stm32f3x.cpu] FPB fpcr 0x261, numcode 6, numlit 2
Debug: 365 75897 target.c:2581 target_read_u32(): address: 0xe0001000, value: 0x40000000
Debug: 366 75897 cortex_m.c:2628 cortex_m_dwt_setup(): [stm32f3x.cpu] DWT_CTRL: 0x40000000
Debug: 367 75897 target.c:2581 target_read_u32(): address: 0xe0001fbc, value: 0x00000000
Debug: 368 75897 cortex_m.c:2635 cortex_m_dwt_setup(): [stm32f3x.cpu] DWT_DEVARCH: 0x0
Debug: 369 75897 target.c:2669 target_write_u32(): address: 0xe0001028, value: 0x00000000
Debug: 370 75898 target.c:2669 target_write_u32(): address: 0xe0001038, value: 0x00000000
Debug: 371 75899 target.c:2669 target_write_u32(): address: 0xe0001048, value: 0x00000000
Debug: 372 75899 target.c:2669 target_write_u32(): address: 0xe0001058, value: 0x00000000
Debug: 373 75900 cortex_m.c:2682 cortex_m_dwt_setup(): [stm32f3x.cpu] DWT dwtcr 0x40000000, comp 4, watch/trigger
Info : 374 75900 cortex_m.c:3070 cortex_m_examine(): [stm32f3x.cpu] target has 6 breakpoints, 4 watchpoints
Debug: 375 75900 target.c:1794 target_call_event_callbacks(): target event 21 (examine-end) for core stm32f3x.cpu
Debug: 376 75900 target.c:4782 target_handle_event(): target: stm32f3x.cpu (cortex_m) event: 21 (examine-end) action:  stm32f3x_default_examine_end 
Debug: 377 75900 command.c:86 script_debug(): command - read_memory 0xe0042004 32 1
Debug: 378 75901 command.c:86 script_debug(): command - mww 0xe0042004 7
Debug: 379 75901 command.c:86 script_debug(): command - read_memory 0xe0042008 32 1
Debug: 380 75902 command.c:86 script_debug(): command - mww 0xe0042008 6144
Info : 381 75903 target.c:700 target_examine_one(): [stm32f3x.cpu] Examination succeed
Debug: 382 89186 server.c:608 sig_handler(): Terminating on Signal 2
Debug: 383 89201 command.c:86 script_debug(): command - shutdown
User : 384 89201 server.c:760 handle_shutdown_command(): shutdown command invoked
Debug: 385 89201 breakpoints.c:328 breakpoint_remove_all_internal(): [stm32f3x.cpu] Delete all breakpoints
Debug: 386 89201 arm_adi_v5.c:1226 dap_put_ap(): refcount AP#0x0 put 0
Debug: 387 89201 target.c:2150 target_free_all_working_areas_restore(): freeing all working areas
Debug: 388 89204 stlink_usb.c:5160 stlink_dap_quit(): stlink_dap_quit()
Debug: 389 89204 stlink_usb.c:1696 stlink_usb_exit_mode(): MODE: 0x02
